
T2EE8 000:065 SEGGER J-Link V6.12a Log File (0000ms, 0033ms total)
T2EE8 000:065 DLL Compiled: Dec  2 2016 16:44:26 (0000ms, 0033ms total)
T2EE8 000:065 Logging started @ 2017-09-26 20:25 (0000ms, 0033ms total)
T2EE8 000:065 JLINK_SetWarnOutHandler(...) (0000ms, 0033ms total)
T2EE8 000:065 JLINK_OpenEx(...)
Firmware: J-Link OB-STM32F072-CortexM compiled Mar  8 2020 11:15:54
Hardware: V1.00
S/N: 283826850
Feature(s): GDB, RDI, FlashBP, FlashDL, JFlash, RDDIWEBSRV Webserver running on local port 19080 (0021ms, 0054ms total)
T2EE8 000:065   returns O.K. (0021ms, 0054ms total)
T2EE8 000:086 JLINK_SetErrorOutHandler(...) (0000ms, 0054ms total)
T2EE8 000:086 JLINK_ExecCommand("ProjectFile = "E:\syncthing\ElectricalEngineering\STM32Code\F401SWDTest\MDK-ARM\JLinkSettings.ini"", ...). C:\Program Files (x86)\SEGGER\JLink_V612a\JLinkDevices.xml evaluated successfully.  returns 0x00 (0106ms, 0160ms total)
T2EE8 000:192 JLINK_ExecCommand("Device = STM32F401CBUx", ...). Device "STM32F401CB" selected.  returns 0x00 (0001ms, 0161ms total)
T2EE8 000:193 JLINK_ExecCommand("DisableConnectionTimeout", ...).   returns 0x01 (0000ms, 0161ms total)
T2EE8 000:193 JLINK_GetHardwareVersion()  returns 0x2710 (0000ms, 0161ms total)
T2EE8 000:193 JLINK_GetDLLVersion()  returns 61201 (0000ms, 0161ms total)
T2EE8 000:193 JLINK_GetFirmwareString(...) (0000ms, 0161ms total)
T2EE8 000:195 JLINK_GetDLLVersion()  returns 61201 (0000ms, 0161ms total)
T2EE8 000:195 JLINK_GetCompileDateTime() (0000ms, 0161ms total)
T2EE8 000:195 JLINK_GetFirmwareString(...) (0000ms, 0161ms total)
T2EE8 000:195 JLINK_GetHardwareVersion()  returns 0x2710 (0000ms, 0161ms total)
T2EE8 000:196 JLINK_TIF_Select(JLINKARM_TIF_SWD)  returns 0x00 (0001ms, 0162ms total)
T2EE8 000:197 JLINK_SetSpeed(5000) (0000ms, 0162ms total)
T2EE8 000:197 JLINK_GetId() >0x108 TIF>Found SWD-DP with ID 0x2BA01477 >0x0D TIF> >0x28 TIF> >0x0D TIF> >0x28 TIF> >0x0D TIF> >0x28 TIF> >0x0D TIF> >0x28 TIF> >0x0D TIF> >0x21 TIF> >0x0D TIF> >0x28 TIF> >0x0D TIF> >0x28 TIF> >0x0D TIF> >0x28 TIF> >0x0D TIF> >0x21 TIF> >0x0D TIF> >0x21 TIF> >0x0D TIF> >0x28 TIF> >0x0D TIF> >0x21 TIF> >0x0D TIF> >0x21 TIF> >0x0D TIF> >0x28 TIF> >0x0D TIF> >0x21 TIF> >0x0D TIF> >0x21 TIF> >0x0D TIF> >0x28 TIF> >0x0D TIF> >0x21 TIF> >0x0D TIF> >0x21 TIF> >0x0D TIF>
 >0x28 TIF> >0x0D TIF> >0x21 TIF> >0x0D TIF> >0x21 TIF> >0x0D TIF> >0x28 TIF> >0x0D TIF> >0x21 TIF> >0x0D TIF> >0x21 TIF> >0x108 TIF>Found SWD-DP with ID 0x2BA01477 >0x0D TIF> >0x28 TIF> >0x0D TIF> >0x28 TIF> >0x0D TIF> >0x28 TIF> >0x0D TIF> >0x28 TIF> >0x0D TIF> >0x21 TIF> >0x0D TIF> >0x28 TIF> >0x0D TIF> >0x28 TIF> >0x0D TIF> >0x21 TIF> >0x0D TIF> >0x21 TIF> >0x0D TIF> >0x21 TIF>AP-IDR: 0x24770011, Type: AHB-AP >0x0D TIF> >0x28 TIF> >0x0D TIF> >0x28 TIF> >0x0D TIF> >0x28 TIF> >0x0D TIF> >0x21 TIF>
 >0x0D TIF> >0x21 TIF> >0x0D TIF> >0x28 TIF> >0x0D TIF> >0x21 TIF> >0x0D TIF> >0x21 TIF>Found Cortex-M4 r0p1, Little endian. -- CPU_ReadMem(4 bytes @ 0xE000EDF0) -- CPU_ReadMem(4 bytes @ 0xE0002000)FPUnit: 6 code (BP) slots and 2 literal slots -- CPU_ReadMem(4 bytes @ 0xE000EDFC) -- CPU_ReadMem(4 bytes @ 0xE0001000) -- CPU_WriteMem(4 bytes @ 0xE0001000) -- CPU_ReadMem(4 bytes @ 0xE000ED88) -- CPU_WriteMem(4 bytes @ 0xE000ED88) -- CPU_ReadMem(4 bytes @ 0xE000ED88) -- CPU_WriteMem(4 bytes @ 0xE000ED88)
CoreSight components:ROMTbl 0 @ E00FF000 -- CPU_ReadMem(16 bytes @ 0xE00FF000) -- CPU_ReadMem(16 bytes @ 0xE000EFF0) -- CPU_ReadMem(16 bytes @ 0xE000EFE0)ROMTbl 0 [0]: FFF0F000, CID: B105E00D, PID: 000BB00C SCS -- CPU_ReadMem(16 bytes @ 0xE0001FF0) -- CPU_ReadMem(16 bytes @ 0xE0001FE0)ROMTbl 0 [1]: FFF02000, CID: B105E00D, PID: 003BB002 DWT -- CPU_ReadMem(16 bytes @ 0xE0002FF0) -- CPU_ReadMem(16 bytes @ 0xE0002FE0)ROMTbl 0 [2]: FFF03000, CID: B105E00D, PID: 002BB003 FPB
 -- CPU_ReadMem(16 bytes @ 0xE0000FF0) -- CPU_ReadMem(16 bytes @ 0xE0000FE0)ROMTbl 0 [3]: FFF01000, CID: B105E00D, PID: 003BB001 ITM -- CPU_ReadMem(16 bytes @ 0xE00FF010) -- CPU_ReadMem(16 bytes @ 0xE0040FF0) -- CPU_ReadMem(16 bytes @ 0xE0040FE0)ROMTbl 0 [4]: FFF41000, CID: B105900D, PID: 000BB9A1 TPIU -- CPU_ReadMem(16 bytes @ 0xE0041FF0) -- CPU_ReadMem(16 bytes @ 0xE0041FE0)ROMTbl 0 [5]: FFF42000, CID: B105900D, PID: 000BB925 ETM >0x0D TIF> >0x21 TIF>  returns 0x2BA01477 (0034ms, 0196ms total)
T2EE8 000:231 JLINK_GetDLLVersion()  returns 61201 (0000ms, 0196ms total)
T2EE8 000:231 JLINK_CORE_GetFound()  returns 0xE0000FF (0000ms, 0196ms total)
T2EE8 000:231 JLINK_GetDebugInfo(0x100) -- Value=0xE00FF000  returns 0x00 (0000ms, 0196ms total)
T2EE8 000:231 JLINK_ReadMem (0xE00FF000, 0x0020 Bytes, ...) -- CPU is running -- CPU_ReadMem(32 bytes @ 0xE00FF000) - Data: 03 F0 F0 FF 03 20 F0 FF 03 30 F0 FF 03 10 F0 FF ...  returns 0x00 (0001ms, 0197ms total)
T2EE8 000:232 JLINK_ReadMem (0xE000EFF0, 0x0010 Bytes, ...) -- CPU is running -- CPU_ReadMem(16 bytes @ 0xE000EFF0) - Data: 0D 00 00 00 E0 00 00 00 05 00 00 00 B1 00 00 00  returns 0x00 (0001ms, 0198ms total)
T2EE8 000:233 JLINK_ReadMem (0xE000EFD0, 0x0020 Bytes, ...) -- CPU is running -- CPU_ReadMem(32 bytes @ 0xE000EFD0) - Data: 04 00 00 00 00 00 00 00 00 00 00 00 00 00 00 00 ...  returns 0x00 (0000ms, 0198ms total)
T2EE8 000:233 JLINK_ReadMem (0xE0001FF0, 0x0010 Bytes, ...) -- CPU is running -- CPU_ReadMem(16 bytes @ 0xE0001FF0) - Data: 0D 00 00 00 E0 00 00 00 05 00 00 00 B1 00 00 00  returns 0x00 (0001ms, 0199ms total)
T2EE8 000:234 JLINK_ReadMem (0xE0001FD0, 0x0020 Bytes, ...) -- CPU is running -- CPU_ReadMem(32 bytes @ 0xE0001FD0) - Data: 04 00 00 00 00 00 00 00 00 00 00 00 00 00 00 00 ...  returns 0x00 (0001ms, 0200ms total)
T2EE8 000:235 JLINK_ReadMem (0xE0002FF0, 0x0010 Bytes, ...) -- CPU is running -- CPU_ReadMem(16 bytes @ 0xE0002FF0) - Data: 0D 00 00 00 E0 00 00 00 05 00 00 00 B1 00 00 00  returns 0x00 (0000ms, 0200ms total)
T2EE8 000:235 JLINK_ReadMem (0xE0002FD0, 0x0020 Bytes, ...) -- CPU is running -- CPU_ReadMem(32 bytes @ 0xE0002FD0) - Data: 04 00 00 00 00 00 00 00 00 00 00 00 00 00 00 00 ...  returns 0x00 (0001ms, 0201ms total)
T2EE8 000:236 JLINK_ReadMem (0xE0000FF0, 0x0010 Bytes, ...) -- CPU is running -- CPU_ReadMem(16 bytes @ 0xE0000FF0) - Data: 0D 00 00 00 E0 00 00 00 05 00 00 00 B1 00 00 00  returns 0x00 (0000ms, 0201ms total)
T2EE8 000:236 JLINK_ReadMem (0xE0000FD0, 0x0020 Bytes, ...) -- CPU is running -- CPU_ReadMem(32 bytes @ 0xE0000FD0) - Data: 04 00 00 00 00 00 00 00 00 00 00 00 00 00 00 00 ...  returns 0x00 (0001ms, 0202ms total)
T2EE8 000:237 JLINK_ReadMem (0xE0040FF0, 0x0010 Bytes, ...) -- CPU is running -- CPU_ReadMem(16 bytes @ 0xE0040FF0) - Data: 0D 00 00 00 90 00 00 00 05 00 00 00 B1 00 00 00  returns 0x00 (0001ms, 0203ms total)
T2EE8 000:238 JLINK_ReadMem (0xE0040FD0, 0x0020 Bytes, ...) -- CPU is running -- CPU_ReadMem(32 bytes @ 0xE0040FD0) - Data: 04 00 00 00 00 00 00 00 00 00 00 00 00 00 00 00 ...  returns 0x00 (0000ms, 0203ms total)
T2EE8 000:238 JLINK_ReadMem (0xE0041FF0, 0x0010 Bytes, ...) -- CPU is running -- CPU_ReadMem(16 bytes @ 0xE0041FF0) - Data: 0D 00 00 00 90 00 00 00 05 00 00 00 B1 00 00 00  returns 0x00 (0001ms, 0204ms total)
T2EE8 000:239 JLINK_ReadMem (0xE0041FD0, 0x0020 Bytes, ...) -- CPU is running -- CPU_ReadMem(32 bytes @ 0xE0041FD0) - Data: 04 00 00 00 00 00 00 00 00 00 00 00 00 00 00 00 ...  returns 0x00 (0000ms, 0204ms total)
T2EE8 000:239 JLINK_ReadMemU32(0xE000EF40, 0x0001 Items, ...) -- CPU is running -- CPU_ReadMem(4 bytes @ 0xE000EF40) - Data: 21 00 11 10  returns 0x01 (0001ms, 0205ms total)
T2EE8 000:240 JLINK_ReadMemU32(0xE000EF44, 0x0001 Items, ...) -- CPU is running -- CPU_ReadMem(4 bytes @ 0xE000EF44) - Data: 11 00 00 11  returns 0x01 (0000ms, 0205ms total)
T2EE8 000:240 JLINK_ReadMemU32(0xE000ED00, 0x0001 Items, ...) -- CPU is running -- CPU_ReadMem(4 bytes @ 0xE000ED00) - Data: 41 C2 0F 41  returns 0x01 (0001ms, 0206ms total)
T2EE8 000:241 JLINK_SetResetType(JLINKARM_CM3_RESET_TYPE_NORMAL)  returns JLINKARM_CM3_RESET_TYPE_NORMAL (0000ms, 0206ms total)
T2EE8 000:241 JLINK_Reset() -- CPU is running -- CPU_WriteMem(4 bytes @ 0xE000EDF0) -- CPU is running -- CPU_WriteMem(4 bytes @ 0xE000EDFC) >0x35 TIF> -- CPU is running -- CPU_WriteMem(4 bytes @ 0xE000ED0C) -- CPU is running -- CPU_ReadMem(4 bytes @ 0xE000EDF0) -- CPU is running -- CPU_ReadMem(4 bytes @ 0xE000EDF0) -- CPU is running -- CPU_WriteMem(4 bytes @ 0xE000EDF0) -- CPU is running -- CPU_WriteMem(4 bytes @ 0xE000EDFC) -- CPU is running -- CPU_ReadMem(4 bytes @ 0xE000EDF0)
 -- CPU_WriteMem(4 bytes @ 0xE0002000) -- CPU_ReadMem(4 bytes @ 0xE000EDFC) -- CPU_ReadMem(4 bytes @ 0xE0001000) (0018ms, 0224ms total)
T2EE8 000:259 JLINK_ReadReg(R15 (PC))  returns 0x080001A8 (0000ms, 0224ms total)
T2EE8 000:259 JLINK_ReadReg(XPSR)  returns 0x01000000 (0000ms, 0224ms total)
T2EE8 000:259 JLINK_Halt()  returns 0x00 (0000ms, 0224ms total)
T2EE8 000:259 JLINK_IsHalted()  returns TRUE (0000ms, 0224ms total)
T2EE8 000:259 JLINK_ReadMemU32(0xE000EDF0, 0x0001 Items, ...) -- CPU_ReadMem(4 bytes @ 0xE000EDF0) - Data: 03 00 03 00  returns 0x01 (0001ms, 0225ms total)
T2EE8 000:260 JLINK_WriteU32(0xE000EDF0, 0xA05F0003) -- CPU_WriteMem(4 bytes @ 0xE000EDF0)  returns 0x00 (0000ms, 0225ms total)
T2EE8 000:260 JLINK_WriteU32(0xE000EDFC, 0x01000000) -- CPU_WriteMem(4 bytes @ 0xE000EDFC)  returns 0x00 (0000ms, 0225ms total)
T2EE8 000:261 JLINK_GetHWStatus(...)  returns 0x00 (0001ms, 0226ms total)
T2EE8 000:262 JLINK_GetNumBPUnits(Type = 0xFFFFFF00)  returns 0x06 (0000ms, 0226ms total)
T2EE8 000:262 JLINK_GetNumBPUnits(Type = 0xF0)  returns 0x2000 (0000ms, 0226ms total)
T2EE8 000:262 JLINK_GetNumWPUnits()  returns 0x04 (0000ms, 0226ms total)
T2EE8 000:263 JLINK_GetSpeed()  returns 0x7D0 (0000ms, 0226ms total)
T2EE8 000:263 JLINK_ReadMemU32(0xE000E004, 0x0001 Items, ...) -- CPU_ReadMem(4 bytes @ 0xE000E004) - Data: 02 00 00 00  returns 0x01 (0001ms, 0227ms total)
T2EE8 000:264 JLINK_ReadMemU32(0xE000E004, 0x0001 Items, ...) -- CPU_ReadMem(4 bytes @ 0xE000E004) - Data: 02 00 00 00  returns 0x01 (0000ms, 0227ms total)
T2EE8 000:264 JLINK_WriteMem(0xE0001000, 0x001C Bytes, ...) - Data: 01 00 00 00 00 00 00 00 00 00 00 00 00 00 00 00 ... -- CPU_WriteMem(28 bytes @ 0xE0001000)  returns 0x1C (0001ms, 0228ms total)
T2EE8 000:265 JLINK_ReadMem (0xE0001000, 0x001C Bytes, ...) -- CPU_ReadMem(28 bytes @ 0xE0001000) - Data: 01 00 00 40 00 00 00 00 00 00 00 00 00 00 00 00 ...  returns 0x00 (0001ms, 0229ms total)
T2EE8 000:266 JLINK_ReadReg(R15 (PC))  returns 0x080001A8 (0000ms, 0229ms total)
T2EE8 000:266 JLINK_ReadReg(XPSR)  returns 0x01000000 (0000ms, 0229ms total)
T2EE8 000:344 JLINK_SetResetType(JLINKARM_CM3_RESET_TYPE_NORMAL)  returns JLINKARM_CM3_RESET_TYPE_NORMAL (0000ms, 0229ms total)
T2EE8 000:344 JLINK_Reset() -- CPU_WriteMem(4 bytes @ 0xE000EDF0) -- CPU_WriteMem(4 bytes @ 0xE000EDFC) >0x35 TIF> -- CPU_WriteMem(4 bytes @ 0xE000ED0C) -- CPU_ReadMem(4 bytes @ 0xE000EDF0) -- CPU_ReadMem(4 bytes @ 0xE000EDF0) -- CPU_WriteMem(4 bytes @ 0xE000EDF0) -- CPU_WriteMem(4 bytes @ 0xE000EDFC) -- CPU is running -- CPU_ReadMem(4 bytes @ 0xE000EDF0) -- CPU_WriteMem(4 bytes @ 0xE0002000) -- CPU_ReadMem(4 bytes @ 0xE000EDFC) -- CPU_ReadMem(4 bytes @ 0xE0001000) (0019ms, 0248ms total)
T2EE8 000:363 JLINK_ReadReg(R15 (PC))  returns 0x080001A8 (0000ms, 0248ms total)
T2EE8 000:363 JLINK_ReadReg(XPSR)  returns 0x01000000 (0000ms, 0248ms total)
T2EE8 000:364 JLINK_ReadMem (0x08000194, 0x003C Bytes, ...) -- CPU_ReadMem(128 bytes @ 0x08000180) -- Updating C cache (128 bytes @ 0x08000180) -- Read from C cache (60 bytes @ 0x08000194) - Data: DF F8 0C D0 00 F0 18 F8 00 48 00 47 D5 14 00 08 ...  returns 0x00 (0001ms, 0249ms total)
T2EE8 002:320 JLINK_ReadMem (0x2000000E, 0x0006 Bytes, ...) -- CPU_ReadMem(64 bytes @ 0x20000000) -- Updating C cache (64 bytes @ 0x20000000) -- Read from C cache (6 bytes @ 0x2000000E) - Data: A5 FA 19 F0 03 00  returns 0x00 (0002ms, 0251ms total)
T1E24 002:354 JLINK_SetBPEx(Addr = 0x080014D4, Type = 0xFFFFFFF2)  returns 0x00000001 (0000ms, 0251ms total)
T1E24 002:354 JLINK_SetBPEx(Addr = 0x08001560, Type = 0xFFFFFFF2)  returns 0x00000002 (0000ms, 0251ms total)
T1E24 002:354 JLINK_Go() -- CPU_WriteMem(4 bytes @ 0xE0002000) -- CPU_WriteMem(4 bytes @ 0xE0002000) -- CPU_ReadMem(4 bytes @ 0xE0001000) -- CPU_WriteMem(4 bytes @ 0xE0002008) -- CPU_WriteMem(4 bytes @ 0xE000200C) -- CPU_WriteMem(4 bytes @ 0xE0002010) -- CPU_WriteMem(4 bytes @ 0xE0002014) -- CPU_WriteMem(4 bytes @ 0xE0002018) -- CPU_WriteMem(4 bytes @ 0xE000201C) -- CPU_WriteMem(4 bytes @ 0xE0001004) (0005ms, 0256ms total)
T1E24 002:460 JLINK_IsHalted()  returns TRUE (0004ms, 0260ms total)
T1E24 002:464 JLINK_Halt()  returns 0x00 (0000ms, 0256ms total)
T1E24 002:464 JLINK_IsHalted()  returns TRUE (0001ms, 0257ms total)
T1E24 002:465 JLINK_IsHalted()  returns TRUE (0000ms, 0256ms total)
T1E24 002:465 JLINK_IsHalted()  returns TRUE (0000ms, 0256ms total)
T1E24 002:465 JLINK_ReadReg(R15 (PC))  returns 0x080014D4 (0000ms, 0256ms total)
T1E24 002:465 JLINK_ReadReg(XPSR)  returns 0x61000000 (0000ms, 0256ms total)
T1E24 002:465 JLINK_ClrBPEx(BPHandle = 0x00000001)  returns 0x00 (0000ms, 0256ms total)
T1E24 002:465 JLINK_ClrBPEx(BPHandle = 0x00000002)  returns 0x00 (0000ms, 0256ms total)
T1E24 002:465 JLINK_ReadMemU32(0xE000ED30, 0x0001 Items, ...) -- CPU_ReadMem(4 bytes @ 0xE000ED30) - Data: 02 00 00 00  returns 0x01 (0000ms, 0256ms total)
T1E24 002:465 JLINK_ReadMemU32(0xE0001028, 0x0001 Items, ...) -- CPU_ReadMem(4 bytes @ 0xE0001028) - Data: 00 00 00 00  returns 0x01 (0000ms, 0256ms total)
T1E24 002:465 JLINK_ReadMemU32(0xE0001038, 0x0001 Items, ...) -- CPU_ReadMem(4 bytes @ 0xE0001038) - Data: 00 02 00 00  returns 0x01 (0001ms, 0257ms total)
T1E24 002:466 JLINK_ReadMemU32(0xE0001048, 0x0001 Items, ...) -- CPU_ReadMem(4 bytes @ 0xE0001048) - Data: 00 00 00 00  returns 0x01 (0000ms, 0257ms total)
T1E24 002:466 JLINK_ReadMemU32(0xE0001058, 0x0001 Items, ...) -- CPU_ReadMem(4 bytes @ 0xE0001058) - Data: 00 00 00 00  returns 0x01 (0001ms, 0258ms total)
T1E24 002:467 JLINK_ReadReg(R0)  returns 0x080014D5 (0000ms, 0258ms total)
T1E24 002:467 JLINK_ReadReg(R1)  returns 0x20000528 (0000ms, 0258ms total)
T1E24 002:467 JLINK_ReadReg(R2)  returns 0x00000000 (0000ms, 0258ms total)
T1E24 002:467 JLINK_ReadReg(R3)  returns 0x080014C7 (0000ms, 0258ms total)
T1E24 002:467 JLINK_ReadReg(R4)  returns 0x080015EC (0000ms, 0258ms total)
T1E24 002:467 JLINK_ReadReg(R5)  returns 0x080015EC (0000ms, 0258ms total)
T1E24 002:467 JLINK_ReadReg(R6)  returns 0x00000000 (0000ms, 0258ms total)
T1E24 002:467 JLINK_ReadReg(R7)  returns 0x00000000 (0000ms, 0258ms total)
T1E24 002:467 JLINK_ReadReg(R8)  returns 0x00000000 (0000ms, 0258ms total)
T1E24 002:467 JLINK_ReadReg(R9)  returns 0x00000000 (0000ms, 0258ms total)
T1E24 002:467 JLINK_ReadReg(R10)  returns 0x00000000 (0000ms, 0258ms total)
T1E24 002:467 JLINK_ReadReg(R11)  returns 0x00000000 (0000ms, 0258ms total)
T1E24 002:467 JLINK_ReadReg(R12)  returns 0x00000000 (0000ms, 0258ms total)
T1E24 002:467 JLINK_ReadReg(R13 (SP))  returns 0x20000528 (0000ms, 0258ms total)
T1E24 002:467 JLINK_ReadReg(R14)  returns 0x080001E9 (0000ms, 0258ms total)
T1E24 002:467 JLINK_ReadReg(R15 (PC))  returns 0x080014D4 (0000ms, 0258ms total)
T1E24 002:467 JLINK_ReadReg(XPSR)  returns 0x61000000 (0000ms, 0258ms total)
T1E24 002:467 JLINK_ReadReg(MSP)  returns 0x20000528 (0000ms, 0258ms total)
T1E24 002:467 JLINK_ReadReg(PSP)  returns 0x00000000 (0000ms, 0258ms total)
T1E24 002:467 JLINK_ReadReg(CFBP)  returns 0x00000000 (0000ms, 0258ms total)
T1E24 002:467 JLINK_ReadReg(FPSCR)  returns 0x00000000 (0007ms, 0265ms total)
T1E24 002:474 JLINK_ReadReg(FPS0)  returns 0x00000000 (0000ms, 0265ms total)
T1E24 002:474 JLINK_ReadReg(FPS1)  returns 0x00000000 (0000ms, 0265ms total)
T1E24 002:474 JLINK_ReadReg(FPS2)  returns 0x00000000 (0000ms, 0265ms total)
T1E24 002:474 JLINK_ReadReg(FPS3)  returns 0x00000000 (0000ms, 0265ms total)
T1E24 002:474 JLINK_ReadReg(FPS4)  returns 0x00000000 (0000ms, 0265ms total)
T1E24 002:474 JLINK_ReadReg(FPS5)  returns 0x00000000 (0000ms, 0265ms total)
T1E24 002:474 JLINK_ReadReg(FPS6)  returns 0x00000000 (0000ms, 0265ms total)
T1E24 002:474 JLINK_ReadReg(FPS7)  returns 0x00000000 (0000ms, 0265ms total)
T1E24 002:474 JLINK_ReadReg(FPS8)  returns 0x00000000 (0000ms, 0265ms total)
T1E24 002:474 JLINK_ReadReg(FPS9)  returns 0x00000000 (0000ms, 0265ms total)
T1E24 002:474 JLINK_ReadReg(FPS10)  returns 0x00000000 (0000ms, 0265ms total)
T1E24 002:474 JLINK_ReadReg(FPS11)  returns 0x00000000 (0000ms, 0265ms total)
T1E24 002:474 JLINK_ReadReg(FPS12)  returns 0x00000000 (0000ms, 0265ms total)
T1E24 002:474 JLINK_ReadReg(FPS13)  returns 0x00000000 (0000ms, 0265ms total)
T1E24 002:474 JLINK_ReadReg(FPS14)  returns 0x00000000 (0000ms, 0265ms total)
T1E24 002:474 JLINK_ReadReg(FPS15)  returns 0x00000000 (0000ms, 0265ms total)
T1E24 002:474 JLINK_ReadReg(FPS16)  returns 0x00000000 (0000ms, 0265ms total)
T1E24 002:474 JLINK_ReadReg(FPS17)  returns 0x00000000 (0000ms, 0265ms total)
T1E24 002:474 JLINK_ReadReg(FPS18)  returns 0x00000000 (0001ms, 0266ms total)
T1E24 002:475 JLINK_ReadReg(FPS19)  returns 0x00000000 (0000ms, 0266ms total)
T1E24 002:475 JLINK_ReadReg(FPS20)  returns 0x00000000 (0000ms, 0266ms total)
T1E24 002:475 JLINK_ReadReg(FPS21)  returns 0x00000000 (0000ms, 0266ms total)
T1E24 002:475 JLINK_ReadReg(FPS22)  returns 0x00000000 (0000ms, 0266ms total)
T1E24 002:475 JLINK_ReadReg(FPS23)  returns 0x00000000 (0000ms, 0266ms total)
T1E24 002:475 JLINK_ReadReg(FPS24)  returns 0x00000000 (0000ms, 0266ms total)
T1E24 002:475 JLINK_ReadReg(FPS25)  returns 0x00000000 (0000ms, 0266ms total)
T1E24 002:475 JLINK_ReadReg(FPS26)  returns 0x00000000 (0000ms, 0266ms total)
T1E24 002:475 JLINK_ReadReg(FPS27)  returns 0x00000000 (0000ms, 0266ms total)
T1E24 002:475 JLINK_ReadReg(FPS28)  returns 0x00000000 (0000ms, 0266ms total)
T1E24 002:475 JLINK_ReadReg(FPS29)  returns 0x00000000 (0000ms, 0266ms total)
T1E24 002:475 JLINK_ReadReg(FPS30)  returns 0x00000000 (0000ms, 0266ms total)
T1E24 002:475 JLINK_ReadReg(FPS31)  returns 0x00000000 (0000ms, 0266ms total)
T2EE8 002:477 JLINK_ReadMemU32(0xE0001004, 0x0001 Items, ...) -- CPU_ReadMem(4 bytes @ 0xE0001004) - Data: 51 08 00 00  returns 0x01 (0000ms, 0266ms total)
T2EE8 002:478 JLINK_ReadMem (0x2000000E, 0x0006 Bytes, ...) -- CPU_ReadMem(64 bytes @ 0x20000000) -- Updating C cache (64 bytes @ 0x20000000) -- Read from C cache (6 bytes @ 0x2000000E) - Data: 00 00 00 00 00 00  returns 0x00 (0001ms, 0267ms total)
T2EE8 002:482 JLINK_ReadMem (0x080013D4, 0x002C Bytes, ...) -- CPU_ReadMem(64 bytes @ 0x080013C0) -- Updating C cache (64 bytes @ 0x080013C0) -- Read from C cache (44 bytes @ 0x080013D4) - Data: 18 01 48 43 06 EB 80 01 08 EB 01 10 B0 FB F5 F0 ...  returns 0x00 (0001ms, 0268ms total)
T2EE8 002:483 JLINK_ReadMem (0x08001400, 0x0010 Bytes, ...) -- CPU_ReadMem(64 bytes @ 0x08001400) -- Updating C cache (64 bytes @ 0x08001400) -- Read from C cache (16 bytes @ 0x08001400) - Data: 06 EB 00 16 FF F7 54 F9 00 EB C0 01 01 EB 00 10  returns 0x00 (0001ms, 0269ms total)
T2EE8 002:484 JLINK_ReadMem (0x08001410, 0x003C Bytes, ...) -- CPU_ReadMem(64 bytes @ 0x08001440) -- Updating C cache (64 bytes @ 0x08001440) -- Read from C cache (60 bytes @ 0x08001410) - Data: 61 68 89 00 B0 FB F1 F7 FF F7 4A F9 00 EB C0 01 ...  returns 0x00 (0001ms, 0270ms total)
T2EE8 002:485 JLINK_ReadMem (0x08001450, 0x003C Bytes, ...) -- CPU_ReadMem(64 bytes @ 0x08001480) -- Updating C cache (64 bytes @ 0x08001480) -- Read from C cache (60 bytes @ 0x08001450) - Data: 2D E9 F0 41 98 46 17 46 0E 46 04 46 06 9D 1D E0 ...  returns 0x00 (0001ms, 0271ms total)
T2EE8 002:486 JLINK_ReadMem (0x0800148C, 0x003C Bytes, ...) -- CPU_ReadMem(64 bytes @ 0x080014C0) -- Updating C cache (64 bytes @ 0x080014C0) -- Read from C cache (60 bytes @ 0x0800148C) - Data: 84 F8 3A 00 00 20 84 F8 38 00 03 20 BD E8 F0 81 ...  returns 0x00 (0001ms, 0272ms total)
T2EE8 002:487 JLINK_ReadMem (0x080014C8, 0x003C Bytes, ...) -- CPU_ReadMem(64 bytes @ 0x08001500) -- Updating C cache (64 bytes @ 0x08001500) -- Read from C cache (60 bytes @ 0x080014C8) - Data: 01 E0 01 C1 12 1F 00 2A FB D1 70 47 08 B5 FE F7 ...  returns 0x00 (0002ms, 0274ms total)
T2EE8 003:557 JLINK_SetResetType(JLINKARM_CM3_RESET_TYPE_NORMAL)  returns JLINKARM_CM3_RESET_TYPE_NORMAL (0000ms, 0274ms total)
T2EE8 003:557 JLINK_Reset() -- CPU_WriteMem(4 bytes @ 0xE000EDF0) -- CPU_WriteMem(4 bytes @ 0xE000EDFC) >0x35 TIF> -- CPU_WriteMem(4 bytes @ 0xE000ED0C) -- CPU_ReadMem(4 bytes @ 0xE000EDF0) -- CPU_ReadMem(4 bytes @ 0xE000EDF0) -- CPU_WriteMem(4 bytes @ 0xE000EDF0) -- CPU_WriteMem(4 bytes @ 0xE000EDFC) -- CPU is running -- CPU_ReadMem(4 bytes @ 0xE000EDF0) -- CPU_WriteMem(4 bytes @ 0xE0002000) -- CPU_ReadMem(4 bytes @ 0xE000EDFC) -- CPU_ReadMem(4 bytes @ 0xE0001000) (0020ms, 0294ms total)
T2EE8 003:577 JLINK_ReadReg(R15 (PC))  returns 0x080001A8 (0000ms, 0294ms total)
T2EE8 003:577 JLINK_ReadReg(XPSR)  returns 0x01000000 (0000ms, 0294ms total)
T2EE8 003:577 JLINK_ReadMemU32(0xE0001004, 0x0001 Items, ...) - Data: 00 00 00 00  returns 0x01 (0000ms, 0294ms total)
T2EE8 003:580 JLINK_ReadMem (0x08000194, 0x003C Bytes, ...) -- CPU_ReadMem(128 bytes @ 0x08000180) -- Updating C cache (128 bytes @ 0x08000180) -- Read from C cache (60 bytes @ 0x08000194) - Data: DF F8 0C D0 00 F0 18 F8 00 48 00 47 D5 14 00 08 ...  returns 0x00 (0002ms, 0296ms total)
T2EE8 003:654 JLINK_ReadMem (0x2000000E, 0x0006 Bytes, ...) -- CPU_ReadMem(64 bytes @ 0x20000000) -- Updating C cache (64 bytes @ 0x20000000) -- Read from C cache (6 bytes @ 0x2000000E) - Data: 00 00 00 00 00 00  returns 0x00 (0001ms, 0297ms total)
T1E24 007:696 JLINK_SetBPEx(Addr = 0x08001560, Type = 0xFFFFFFF2)  returns 0x00000003 (0000ms, 0297ms total)
T1E24 007:696 JLINK_Go() -- CPU_WriteMem(4 bytes @ 0xE0002000) -- CPU_ReadMem(4 bytes @ 0xE0001000) -- CPU_WriteMem(4 bytes @ 0xE0002008) -- CPU_WriteMem(4 bytes @ 0xE000200C) -- CPU_WriteMem(4 bytes @ 0xE0002010) -- CPU_WriteMem(4 bytes @ 0xE0002014) -- CPU_WriteMem(4 bytes @ 0xE0002018) -- CPU_WriteMem(4 bytes @ 0xE000201C) -- CPU_WriteMem(4 bytes @ 0xE0001004) (0005ms, 0302ms total)
T1E24 007:802 JLINK_IsHalted()  returns TRUE (0004ms, 0306ms total)
T1E24 007:806 JLINK_Halt()  returns 0x00 (0000ms, 0302ms total)
T1E24 007:806 JLINK_IsHalted()  returns TRUE (0000ms, 0302ms total)
T1E24 007:806 JLINK_IsHalted()  returns TRUE (0000ms, 0302ms total)
T1E24 007:806 JLINK_IsHalted()  returns TRUE (0000ms, 0302ms total)
T1E24 007:806 JLINK_ReadReg(R15 (PC))  returns 0x08001560 (0000ms, 0302ms total)
T1E24 007:806 JLINK_ReadReg(XPSR)  returns 0x61000000 (0000ms, 0302ms total)
T1E24 007:806 JLINK_ClrBPEx(BPHandle = 0x00000003)  returns 0x00 (0000ms, 0302ms total)
T1E24 007:806 JLINK_ReadMemU32(0xE000ED30, 0x0001 Items, ...) -- CPU_ReadMem(4 bytes @ 0xE000ED30) - Data: 02 00 00 00  returns 0x01 (0000ms, 0302ms total)
T1E24 007:807 JLINK_ReadMemU32(0xE0001028, 0x0001 Items, ...) -- CPU_ReadMem(4 bytes @ 0xE0001028) - Data: 00 00 00 00  returns 0x01 (0000ms, 0303ms total)
T1E24 007:807 JLINK_ReadMemU32(0xE0001038, 0x0001 Items, ...) -- CPU_ReadMem(4 bytes @ 0xE0001038) - Data: 00 02 00 00  returns 0x01 (0000ms, 0303ms total)
T1E24 007:807 JLINK_ReadMemU32(0xE0001048, 0x0001 Items, ...) -- CPU_ReadMem(4 bytes @ 0xE0001048) - Data: 00 00 00 00  returns 0x01 (0001ms, 0304ms total)
T1E24 007:808 JLINK_ReadMemU32(0xE0001058, 0x0001 Items, ...) -- CPU_ReadMem(4 bytes @ 0xE0001058) - Data: 00 00 00 00  returns 0x01 (0000ms, 0304ms total)
T1E24 007:808 JLINK_ReadReg(R0)  returns 0x00000000 (0000ms, 0304ms total)
T1E24 007:808 JLINK_ReadReg(R1)  returns 0x00000000 (0000ms, 0304ms total)
T1E24 007:808 JLINK_ReadReg(R2)  returns 0x00000000 (0000ms, 0304ms total)
T1E24 007:808 JLINK_ReadReg(R3)  returns 0x00000002 (0000ms, 0304ms total)
T1E24 007:808 JLINK_ReadReg(R4)  returns 0x00000064 (0001ms, 0305ms total)
T1E24 007:809 JLINK_ReadReg(R5)  returns 0x0001C200 (0000ms, 0305ms total)
T1E24 007:809 JLINK_ReadReg(R6)  returns 0x0000000C (0000ms, 0305ms total)
T1E24 007:809 JLINK_ReadReg(R7)  returns 0x00000000 (0000ms, 0305ms total)
T1E24 007:809 JLINK_ReadReg(R8)  returns 0x00000000 (0000ms, 0305ms total)
T1E24 007:809 JLINK_ReadReg(R9)  returns 0x00000000 (0000ms, 0305ms total)
T1E24 007:809 JLINK_ReadReg(R10)  returns 0x00000000 (0000ms, 0305ms total)
T1E24 007:809 JLINK_ReadReg(R11)  returns 0x00000000 (0000ms, 0305ms total)
T1E24 007:809 JLINK_ReadReg(R12)  returns 0x0000C000 (0000ms, 0305ms total)
T1E24 007:809 JLINK_ReadReg(R13 (SP))  returns 0x20000520 (0000ms, 0305ms total)
T1E24 007:809 JLINK_ReadReg(R14)  returns 0x08000FFB (0000ms, 0305ms total)
T1E24 007:809 JLINK_ReadReg(R15 (PC))  returns 0x08001560 (0000ms, 0305ms total)
T1E24 007:809 JLINK_ReadReg(XPSR)  returns 0x61000000 (0000ms, 0305ms total)
T1E24 007:809 JLINK_ReadReg(MSP)  returns 0x20000520 (0000ms, 0305ms total)
T1E24 007:809 JLINK_ReadReg(PSP)  returns 0x00000000 (0000ms, 0305ms total)
T1E24 007:809 JLINK_ReadReg(CFBP)  returns 0x00000000 (0000ms, 0305ms total)
T1E24 007:809 JLINK_ReadReg(FPSCR)  returns 0x00000000 (0007ms, 0312ms total)
T1E24 007:816 JLINK_ReadReg(FPS0)  returns 0x00000000 (0000ms, 0312ms total)
T1E24 007:816 JLINK_ReadReg(FPS1)  returns 0x00000000 (0000ms, 0312ms total)
T1E24 007:816 JLINK_ReadReg(FPS2)  returns 0x00000000 (0000ms, 0312ms total)
T1E24 007:816 JLINK_ReadReg(FPS3)  returns 0x00000000 (0000ms, 0312ms total)
T1E24 007:816 JLINK_ReadReg(FPS4)  returns 0x00000000 (0000ms, 0312ms total)
T1E24 007:816 JLINK_ReadReg(FPS5)  returns 0x00000000 (0000ms, 0312ms total)
T1E24 007:816 JLINK_ReadReg(FPS6)  returns 0x00000000 (0000ms, 0312ms total)
T1E24 007:816 JLINK_ReadReg(FPS7)  returns 0x00000000 (0000ms, 0312ms total)
T1E24 007:816 JLINK_ReadReg(FPS8)  returns 0x00000000 (0000ms, 0312ms total)
T1E24 007:816 JLINK_ReadReg(FPS9)  returns 0x00000000 (0000ms, 0312ms total)
T1E24 007:816 JLINK_ReadReg(FPS10)  returns 0x00000000 (0000ms, 0312ms total)
T1E24 007:816 JLINK_ReadReg(FPS11)  returns 0x00000000 (0000ms, 0312ms total)
T1E24 007:816 JLINK_ReadReg(FPS12)  returns 0x00000000 (0000ms, 0312ms total)
T1E24 007:816 JLINK_ReadReg(FPS13)  returns 0x00000000 (0000ms, 0312ms total)
T1E24 007:816 JLINK_ReadReg(FPS14)  returns 0x00000000 (0000ms, 0312ms total)
T1E24 007:816 JLINK_ReadReg(FPS15)  returns 0x00000000 (0000ms, 0312ms total)
T1E24 007:816 JLINK_ReadReg(FPS16)  returns 0x00000000 (0000ms, 0312ms total)
T1E24 007:816 JLINK_ReadReg(FPS17)  returns 0x00000000 (0000ms, 0312ms total)
T1E24 007:816 JLINK_ReadReg(FPS18)  returns 0x00000000 (0000ms, 0312ms total)
T1E24 007:816 JLINK_ReadReg(FPS19)  returns 0x00000000 (0000ms, 0312ms total)
T1E24 007:816 JLINK_ReadReg(FPS20)  returns 0x00000000 (0000ms, 0312ms total)
T1E24 007:816 JLINK_ReadReg(FPS21)  returns 0x00000000 (0000ms, 0312ms total)
T1E24 007:816 JLINK_ReadReg(FPS22)  returns 0x00000000 (0000ms, 0312ms total)
T1E24 007:816 JLINK_ReadReg(FPS23)  returns 0x00000000 (0000ms, 0312ms total)
T1E24 007:816 JLINK_ReadReg(FPS24)  returns 0x00000000 (0000ms, 0312ms total)
T1E24 007:816 JLINK_ReadReg(FPS25)  returns 0x00000000 (0000ms, 0312ms total)
T1E24 007:816 JLINK_ReadReg(FPS26)  returns 0x00000000 (0000ms, 0312ms total)
T1E24 007:816 JLINK_ReadReg(FPS27)  returns 0x00000000 (0000ms, 0312ms total)
T1E24 007:816 JLINK_ReadReg(FPS28)  returns 0x00000000 (0000ms, 0312ms total)
T1E24 007:816 JLINK_ReadReg(FPS29)  returns 0x00000000 (0000ms, 0312ms total)
T1E24 007:816 JLINK_ReadReg(FPS30)  returns 0x00000000 (0000ms, 0312ms total)
T1E24 007:816 JLINK_ReadReg(FPS31)  returns 0x00000000 (0000ms, 0312ms total)
T2EE8 007:816 JLINK_ReadMem (0x20000524, 0x0004 Bytes, ...) -- CPU_ReadMem(64 bytes @ 0x20000500) -- Updating C cache (64 bytes @ 0x20000500) -- Read from C cache (4 bytes @ 0x20000524) - Data: E9 01 00 08  returns 0x00 (0001ms, 0313ms total)
T2EE8 007:818 JLINK_ReadMemU32(0xE0001004, 0x0001 Items, ...) -- CPU_ReadMem(4 bytes @ 0xE0001004) - Data: 41 1E 01 00  returns 0x01 (0000ms, 0313ms total)
T2EE8 007:819 JLINK_ReadMem (0x2000000E, 0x0006 Bytes, ...) -- CPU_ReadMem(64 bytes @ 0x20000000) -- Updating C cache (64 bytes @ 0x20000000) -- Read from C cache (6 bytes @ 0x2000000E) - Data: A5 FA 19 F0 03 00  returns 0x00 (0001ms, 0314ms total)
T2EE8 007:824 JLINK_ReadMem (0x0800154E, 0x0002 Bytes, ...) -- CPU_ReadMem(64 bytes @ 0x08001540) -- Updating C cache (64 bytes @ 0x08001540) -- Read from C cache (2 bytes @ 0x0800154E) - Data: 16 4A  returns 0x00 (0001ms, 0315ms total)
T2EE8 007:825 JLINK_ReadMem (0x08001550, 0x003C Bytes, ...) -- CPU_ReadMem(64 bytes @ 0x08001580) -- Updating C cache (64 bytes @ 0x08001580) -- Read from C cache (60 bytes @ 0x08001550) - Data: 13 48 92 1F 06 23 91 1F 98 38 00 94 FF F7 02 FB ...  returns 0x00 (0001ms, 0316ms total)
T1E24 016:596 JLINK_Step() -- Read from C cache (2 bytes @ 0x08001560) -- CPU_ReadMem(4 bytes @ 0xE000ED18) -- CPU_WriteMem(4 bytes @ 0xE000ED18) -- CPU_ReadMem(4 bytes @ 0xE000ED18) -- CPU_WriteMem(4 bytes @ 0xE000ED18) -- Read from C cache (4 bytes @ 0x080015B0) -- Simulated  returns 0x00 (0002ms, 0318ms total)
T1E24 016:598 JLINK_ReadReg(R15 (PC))  returns 0x08001562 (0000ms, 0318ms total)
T1E24 016:598 JLINK_ReadReg(XPSR)  returns 0x61000000 (0000ms, 0318ms total)
T1E24 016:598 JLINK_SetBPEx(Addr = 0x08001560, Type = 0xFFFFFFF2)  returns 0x00000004 (0000ms, 0318ms total)
T1E24 016:598 JLINK_Go() -- CPU_WriteMem(4 bytes @ 0xE0002000) -- CPU_ReadMem(4 bytes @ 0xE0001000) -- CPU_WriteMem(4 bytes @ 0xE0001004) (0003ms, 0321ms total)
T1E24 016:702 JLINK_IsHalted()  returns FALSE (0000ms, 0321ms total)
T1E24 016:803 JLINK_IsHalted()  returns FALSE (0001ms, 0322ms total)
T1E24 016:904 JLINK_IsHalted()  returns FALSE (0001ms, 0322ms total)
T1E24 017:005 JLINK_IsHalted()  returns FALSE (0001ms, 0322ms total)
T1E24 017:106 JLINK_IsHalted()  returns FALSE (0000ms, 0321ms total)
T1E24 017:206 JLINK_ReadMemU32(0xE0001004, 0x0001 Items, ...) -- CPU is running -- CPU_ReadMem(4 bytes @ 0xE0001004) - Data: 18 70 85 01  returns 0x01 (0001ms, 0322ms total)
T2EE8 017:208 JLINK_ReadMem (0x2000000E, 0x0006 Bytes, ...) -- CPU is running -- CPU_ReadMem(6 bytes @ 0x2000000E) - Data: A5 FA 19 F0 03 00  returns 0x00 (0001ms, 0323ms total)
T2EE8 017:209 JLINK_ReadMem (0x2000000E, 0x0001 Bytes, ...) -- CPU is running -- CPU_ReadMem(1 bytes @ 0x2000000E) - Data: A5  returns 0x00 (0000ms, 0323ms total)
T2EE8 017:209 JLINK_ReadMem (0x2000000F, 0x0001 Bytes, ...) -- CPU is running -- CPU_ReadMem(1 bytes @ 0x2000000F) - Data: FA  returns 0x00 (0001ms, 0324ms total)
T2EE8 017:210 JLINK_ReadMem (0x20000010, 0x0001 Bytes, ...) -- CPU is running -- CPU_ReadMem(1 bytes @ 0x20000010) - Data: 19  returns 0x00 (0000ms, 0324ms total)
T2EE8 017:211 JLINK_ReadMem (0x20000011, 0x0001 Bytes, ...) -- CPU is running -- CPU_ReadMem(1 bytes @ 0x20000011) - Data: F0  returns 0x00 (0000ms, 0324ms total)
T2EE8 017:211 JLINK_ReadMem (0x20000012, 0x0001 Bytes, ...) -- CPU is running -- CPU_ReadMem(1 bytes @ 0x20000012) - Data: 03  returns 0x00 (0001ms, 0325ms total)
T2EE8 017:212 JLINK_ReadMem (0x20000013, 0x0001 Bytes, ...) -- CPU is running -- CPU_ReadMem(1 bytes @ 0x20000013) - Data: 00  returns 0x00 (0000ms, 0325ms total)
T1E24 017:213 JLINK_IsHalted()  returns FALSE (0000ms, 0325ms total)
T1E24 017:313 JLINK_IsHalted()  returns FALSE (0000ms, 0325ms total)
T1E24 017:414 JLINK_IsHalted()  returns FALSE (0001ms, 0326ms total)
T1E24 017:515 JLINK_IsHalted()  returns FALSE (0000ms, 0325ms total)
T1E24 017:615 JLINK_IsHalted()  returns FALSE (0000ms, 0325ms total)
T1E24 017:716 JLINK_ReadMemU32(0xE0001004, 0x0001 Items, ...) -- CPU is running - Data: 18 70 85 01  returns 0x01 (0000ms, 0325ms total)
T2EE8 017:716 JLINK_ReadMem (0x2000000E, 0x0006 Bytes, ...) -- CPU is running -- CPU_ReadMem(6 bytes @ 0x2000000E) - Data: A5 FA 19 F0 03 00  returns 0x00 (0000ms, 0325ms total)
T2EE8 017:716 JLINK_ReadMem (0x2000000E, 0x0001 Bytes, ...) -- CPU is running -- CPU_ReadMem(1 bytes @ 0x2000000E) - Data: A5  returns 0x00 (0001ms, 0326ms total)
T2EE8 017:717 JLINK_ReadMem (0x2000000F, 0x0001 Bytes, ...) -- CPU is running -- CPU_ReadMem(1 bytes @ 0x2000000F) - Data: FA  returns 0x00 (0000ms, 0326ms total)
T2EE8 017:717 JLINK_ReadMem (0x20000010, 0x0001 Bytes, ...) -- CPU is running -- CPU_ReadMem(1 bytes @ 0x20000010) - Data: 19  returns 0x00 (0001ms, 0327ms total)
T2EE8 017:718 JLINK_ReadMem (0x20000011, 0x0001 Bytes, ...) -- CPU is running -- CPU_ReadMem(1 bytes @ 0x20000011) - Data: F0  returns 0x00 (0000ms, 0327ms total)
T2EE8 017:718 JLINK_ReadMem (0x20000012, 0x0001 Bytes, ...) -- CPU is running -- CPU_ReadMem(1 bytes @ 0x20000012) - Data: 03  returns 0x00 (0001ms, 0328ms total)
T2EE8 017:719 JLINK_ReadMem (0x20000013, 0x0001 Bytes, ...) -- CPU is running -- CPU_ReadMem(1 bytes @ 0x20000013) - Data: 00  returns 0x00 (0001ms, 0329ms total)
T1E24 017:720 JLINK_IsHalted()  returns FALSE (0000ms, 0329ms total)
T1E24 017:820 JLINK_IsHalted()  returns FALSE (0001ms, 0330ms total)
T1E24 017:921 JLINK_IsHalted()  returns FALSE (0001ms, 0330ms total)
T1E24 018:022 JLINK_IsHalted()  returns FALSE (0001ms, 0330ms total)
T2EE8 018:039 JLINK_SetResetType(JLINKARM_CM3_RESET_TYPE_NORMAL)  returns JLINKARM_CM3_RESET_TYPE_NORMAL (0000ms, 0329ms total)
T2EE8 018:039 JLINK_ResetNoHalt() >0x108 TIF>Found SWD-DP with ID 0x2BA01477 >0x0D TIF> >0x28 TIF> >0x0D TIF> >0x28 TIF> >0x0D TIF> >0x28 TIF> >0x0D TIF> >0x28 TIF> >0x0D TIF> >0x21 TIF> >0x0D TIF> >0x28 TIF> >0x0D TIF> >0x28 TIF> >0x0D TIF> >0x28 TIF> >0x0D TIF> >0x21 TIF> >0x0D TIF> >0x21 TIF> >0x0D TIF> >0x28 TIF> >0x0D TIF> >0x21 TIF> >0x0D TIF> >0x21 TIF> >0x0D TIF> >0x28 TIF> >0x0D TIF> >0x21 TIF> >0x0D TIF> >0x21 TIF> >0x0D TIF> >0x28 TIF> >0x0D TIF> >0x21 TIF> >0x0D TIF> >0x21 TIF> >0x0D TIF>
 >0x28 TIF> >0x0D TIF> >0x21 TIF> >0x0D TIF> >0x21 TIF> >0x0D TIF> >0x28 TIF> >0x0D TIF> >0x21 TIF> >0x0D TIF> >0x21 TIF> >0x108 TIF>Found SWD-DP with ID 0x2BA01477 >0x0D TIF> >0x28 TIF> >0x0D TIF> >0x28 TIF> >0x0D TIF> >0x28 TIF> >0x0D TIF> >0x28 TIF> >0x0D TIF> >0x21 TIF> >0x0D TIF> >0x28 TIF> >0x0D TIF> >0x28 TIF> >0x0D TIF> >0x21 TIF> >0x0D TIF> >0x21 TIF> >0x0D TIF> >0x21 TIF>AP-IDR: 0x24770011, Type: AHB-AP >0x0D TIF> >0x28 TIF> >0x0D TIF> >0x28 TIF> >0x0D TIF> >0x28 TIF> >0x0D TIF> >0x21 TIF>
 >0x0D TIF> >0x21 TIF> >0x0D TIF> >0x28 TIF> >0x0D TIF> >0x21 TIF> >0x0D TIF> >0x21 TIF>Found Cortex-M4 r0p1, Little endian. -- CPU_ReadMem(4 bytes @ 0xE000EDF0) -- CPU_ReadMem(4 bytes @ 0xE0002000)FPUnit: 6 code (BP) slots and 2 literal slots -- CPU_ReadMem(4 bytes @ 0xE000EDFC) -- CPU_ReadMem(4 bytes @ 0xE0001000) -- CPU_WriteMem(4 bytes @ 0xE0001000) -- CPU_ReadMem(4 bytes @ 0xE000ED88) -- CPU_WriteMem(4 bytes @ 0xE000ED88) -- CPU_ReadMem(4 bytes @ 0xE000ED88) -- CPU_WriteMem(4 bytes @ 0xE000ED88)
CoreSight components:ROMTbl 0 @ E00FF000 -- CPU_ReadMem(16 bytes @ 0xE00FF000) -- CPU_ReadMem(16 bytes @ 0xE000EFF0) -- CPU_ReadMem(16 bytes @ 0xE000EFE0)ROMTbl 0 [0]: FFF0F000, CID: B105E00D, PID: 000BB00C SCS -- CPU_ReadMem(16 bytes @ 0xE0001FF0) -- CPU_ReadMem(16 bytes @ 0xE0001FE0)ROMTbl 0 [1]: FFF02000, CID: B105E00D, PID: 003BB002 DWT -- CPU_ReadMem(16 bytes @ 0xE0002FF0) -- CPU_ReadMem(16 bytes @ 0xE0002FE0)ROMTbl 0 [2]: FFF03000, CID: B105E00D, PID: 002BB003 FPB
 -- CPU_ReadMem(16 bytes @ 0xE0000FF0) -- CPU_ReadMem(16 bytes @ 0xE0000FE0)ROMTbl 0 [3]: FFF01000, CID: B105E00D, PID: 003BB001 ITM -- CPU_ReadMem(16 bytes @ 0xE00FF010) -- CPU_ReadMem(16 bytes @ 0xE0040FF0) -- CPU_ReadMem(16 bytes @ 0xE0040FE0)ROMTbl 0 [4]: FFF41000, CID: B105900D, PID: 000BB9A1 TPIU -- CPU_ReadMem(16 bytes @ 0xE0041FF0) -- CPU_ReadMem(16 bytes @ 0xE0041FE0)ROMTbl 0 [5]: FFF42000, CID: B105900D, PID: 000BB925 ETM
                JLINK_Reset() -- CPU is running -- CPU_WriteMem(4 bytes @ 0xE000EDF0) -- CPU is running -- CPU_WriteMem(4 bytes @ 0xE000EDFC) >0x35 TIF> -- CPU is running -- CPU_WriteMem(4 bytes @ 0xE000ED0C) -- CPU is running -- CPU_ReadMem(4 bytes @ 0xE000EDF0) -- CPU is running -- CPU_ReadMem(4 bytes @ 0xE000EDF0) -- CPU is running -- CPU_WriteMem(4 bytes @ 0xE000EDF0) -- CPU is running -- CPU_WriteMem(4 bytes @ 0xE000EDFC) -- CPU is running -- CPU_ReadMem(4 bytes @ 0xE000EDF0)
 -- CPU_WriteMem(4 bytes @ 0xE0002000) -- CPU_ReadMem(4 bytes @ 0xE000EDFC) -- CPU_ReadMem(4 bytes @ 0xE0001000) (0019ms, 0019ms total)
                JLINK_Go() -- CPU_WriteMem(4 bytes @ 0xE0002000) -- CPU_ReadMem(4 bytes @ 0xE0001000) -- CPU_WriteMem(4 bytes @ 0xE0002008) -- CPU_WriteMem(4 bytes @ 0xE000200C) -- CPU_WriteMem(4 bytes @ 0xE0002010) -- CPU_WriteMem(4 bytes @ 0xE0002014) -- CPU_WriteMem(4 bytes @ 0xE0002018) -- CPU_WriteMem(4 bytes @ 0xE000201C) -- CPU_WriteMem(4 bytes @ 0xE0001004) (0004ms, 0023ms total)
               (0057ms, 0386ms total)
T1E24 018:123 JLINK_IsHalted()  returns TRUE (0005ms, 0391ms total)
T1E24 018:128 JLINK_Halt()  returns 0x00 (0000ms, 0386ms total)
T1E24 018:128 JLINK_IsHalted()  returns TRUE (0000ms, 0386ms total)
T1E24 018:128 JLINK_IsHalted()  returns TRUE (0000ms, 0386ms total)
T1E24 018:128 JLINK_IsHalted()  returns TRUE (0000ms, 0386ms total)
T1E24 018:128 JLINK_ReadReg(R15 (PC))  returns 0x08001560 (0000ms, 0386ms total)
T1E24 018:128 JLINK_ReadReg(XPSR)  returns 0x61000000 (0000ms, 0386ms total)
T1E24 018:128 JLINK_ClrBPEx(BPHandle = 0x00000004)  returns 0x00 (0000ms, 0386ms total)
T1E24 018:128 JLINK_ReadMemU32(0xE000ED30, 0x0001 Items, ...) -- CPU_ReadMem(4 bytes @ 0xE000ED30) - Data: 02 00 00 00  returns 0x01 (0000ms, 0386ms total)
T1E24 018:128 JLINK_ReadMemU32(0xE0001028, 0x0001 Items, ...) -- CPU_ReadMem(4 bytes @ 0xE0001028) - Data: 00 00 00 00  returns 0x01 (0001ms, 0387ms total)
T1E24 018:129 JLINK_ReadMemU32(0xE0001038, 0x0001 Items, ...) -- CPU_ReadMem(4 bytes @ 0xE0001038) - Data: 00 02 00 00  returns 0x01 (0000ms, 0387ms total)
T1E24 018:129 JLINK_ReadMemU32(0xE0001048, 0x0001 Items, ...) -- CPU_ReadMem(4 bytes @ 0xE0001048) - Data: 00 00 00 00  returns 0x01 (0000ms, 0387ms total)
T1E24 018:129 JLINK_ReadMemU32(0xE0001058, 0x0001 Items, ...) -- CPU_ReadMem(4 bytes @ 0xE0001058) - Data: 00 00 00 00  returns 0x01 (0001ms, 0388ms total)
T1E24 018:130 JLINK_ReadReg(R0)  returns 0x00000000 (0000ms, 0388ms total)
T1E24 018:130 JLINK_ReadReg(R1)  returns 0x00000000 (0000ms, 0388ms total)
T1E24 018:130 JLINK_ReadReg(R2)  returns 0x00000000 (0000ms, 0388ms total)
T1E24 018:130 JLINK_ReadReg(R3)  returns 0x00000002 (0000ms, 0388ms total)
T1E24 018:130 JLINK_ReadReg(R4)  returns 0x00000064 (0000ms, 0388ms total)
T1E24 018:130 JLINK_ReadReg(R5)  returns 0x0001C200 (0000ms, 0388ms total)
T1E24 018:130 JLINK_ReadReg(R6)  returns 0x0000000C (0000ms, 0388ms total)
T1E24 018:130 JLINK_ReadReg(R7)  returns 0x00000000 (0000ms, 0388ms total)
T1E24 018:130 JLINK_ReadReg(R8)  returns 0x00000000 (0000ms, 0388ms total)
T1E24 018:130 JLINK_ReadReg(R9)  returns 0x00000000 (0000ms, 0388ms total)
T1E24 018:130 JLINK_ReadReg(R10)  returns 0x00000000 (0000ms, 0388ms total)
T1E24 018:130 JLINK_ReadReg(R11)  returns 0x00000000 (0000ms, 0388ms total)
T1E24 018:130 JLINK_ReadReg(R12)  returns 0x0000C000 (0000ms, 0388ms total)
T1E24 018:130 JLINK_ReadReg(R13 (SP))  returns 0x20000520 (0000ms, 0388ms total)
T1E24 018:130 JLINK_ReadReg(R14)  returns 0x08000FFB (0000ms, 0388ms total)
T1E24 018:130 JLINK_ReadReg(R15 (PC))  returns 0x08001560 (0000ms, 0388ms total)
T1E24 018:130 JLINK_ReadReg(XPSR)  returns 0x61000000 (0000ms, 0388ms total)
T1E24 018:130 JLINK_ReadReg(MSP)  returns 0x20000520 (0000ms, 0388ms total)
T1E24 018:130 JLINK_ReadReg(PSP)  returns 0x00000000 (0000ms, 0388ms total)
T1E24 018:130 JLINK_ReadReg(CFBP)  returns 0x00000000 (0000ms, 0388ms total)
T1E24 018:130 JLINK_ReadReg(FPSCR)  returns 0x00000000 (0007ms, 0395ms total)
T1E24 018:137 JLINK_ReadReg(FPS0)  returns 0x00000000 (0000ms, 0395ms total)
T1E24 018:137 JLINK_ReadReg(FPS1)  returns 0x00000000 (0000ms, 0395ms total)
T1E24 018:137 JLINK_ReadReg(FPS2)  returns 0x00000000 (0000ms, 0395ms total)
T1E24 018:137 JLINK_ReadReg(FPS3)  returns 0x00000000 (0000ms, 0395ms total)
T1E24 018:137 JLINK_ReadReg(FPS4)  returns 0x00000000 (0000ms, 0395ms total)
T1E24 018:137 JLINK_ReadReg(FPS5)  returns 0x00000000 (0000ms, 0395ms total)
T1E24 018:137 JLINK_ReadReg(FPS6)  returns 0x00000000 (0000ms, 0395ms total)
T1E24 018:137 JLINK_ReadReg(FPS7)  returns 0x00000000 (0000ms, 0395ms total)
T1E24 018:137 JLINK_ReadReg(FPS8)  returns 0x00000000 (0000ms, 0395ms total)
T1E24 018:137 JLINK_ReadReg(FPS9)  returns 0x00000000 (0000ms, 0395ms total)
T1E24 018:137 JLINK_ReadReg(FPS10)  returns 0x00000000 (0000ms, 0395ms total)
T1E24 018:137 JLINK_ReadReg(FPS11)  returns 0x00000000 (0000ms, 0395ms total)
T1E24 018:137 JLINK_ReadReg(FPS12)  returns 0x00000000 (0000ms, 0395ms total)
T1E24 018:137 JLINK_ReadReg(FPS13)  returns 0x00000000 (0000ms, 0395ms total)
T1E24 018:137 JLINK_ReadReg(FPS14)  returns 0x00000000 (0000ms, 0395ms total)
T1E24 018:137 JLINK_ReadReg(FPS15)  returns 0x00000000 (0000ms, 0395ms total)
T1E24 018:137 JLINK_ReadReg(FPS16)  returns 0x00000000 (0000ms, 0395ms total)
T1E24 018:137 JLINK_ReadReg(FPS17)  returns 0x00000000 (0000ms, 0395ms total)
T1E24 018:137 JLINK_ReadReg(FPS18)  returns 0x00000000 (0000ms, 0395ms total)
T1E24 018:137 JLINK_ReadReg(FPS19)  returns 0x00000000 (0000ms, 0395ms total)
T1E24 018:137 JLINK_ReadReg(FPS20)  returns 0x00000000 (0000ms, 0395ms total)
T1E24 018:137 JLINK_ReadReg(FPS21)  returns 0x00000000 (0000ms, 0395ms total)
T1E24 018:137 JLINK_ReadReg(FPS22)  returns 0x00000000 (0000ms, 0395ms total)
T1E24 018:137 JLINK_ReadReg(FPS23)  returns 0x00000000 (0000ms, 0395ms total)
T1E24 018:137 JLINK_ReadReg(FPS24)  returns 0x00000000 (0000ms, 0395ms total)
T1E24 018:137 JLINK_ReadReg(FPS25)  returns 0x00000000 (0000ms, 0395ms total)
T1E24 018:137 JLINK_ReadReg(FPS26)  returns 0x00000000 (0000ms, 0395ms total)
T1E24 018:137 JLINK_ReadReg(FPS27)  returns 0x00000000 (0000ms, 0395ms total)
T1E24 018:137 JLINK_ReadReg(FPS28)  returns 0x00000000 (0000ms, 0395ms total)
T1E24 018:137 JLINK_ReadReg(FPS29)  returns 0x00000000 (0000ms, 0395ms total)
T1E24 018:137 JLINK_ReadReg(FPS30)  returns 0x00000000 (0000ms, 0395ms total)
T1E24 018:137 JLINK_ReadReg(FPS31)  returns 0x00000000 (0000ms, 0395ms total)
T2EE8 018:138 JLINK_ReadMem (0x20000524, 0x0004 Bytes, ...) -- CPU_ReadMem(64 bytes @ 0x20000500) -- Updating C cache (64 bytes @ 0x20000500) -- Read from C cache (4 bytes @ 0x20000524) - Data: E9 01 00 08  returns 0x00 (0001ms, 0396ms total)
T2EE8 018:139 JLINK_ReadMemU32(0xE0001004, 0x0001 Items, ...) -- CPU_ReadMem(4 bytes @ 0xE0001004) - Data: 63 FB 00 00  returns 0x01 (0000ms, 0396ms total)
T2EE8 018:139 JLINK_ReadMem (0x2000000E, 0x0006 Bytes, ...) -- CPU_ReadMem(64 bytes @ 0x20000000) -- Updating C cache (64 bytes @ 0x20000000) -- Read from C cache (6 bytes @ 0x2000000E) - Data: A5 FA 19 F0 03 00  returns 0x00 (0001ms, 0397ms total)
T1E24 019:555 JLINK_Step() -- CPU_ReadMem(64 bytes @ 0x08001540) -- Updating C cache (64 bytes @ 0x08001540) -- Read from C cache (2 bytes @ 0x08001560) -- CPU_ReadMem(4 bytes @ 0xE000ED18) -- CPU_WriteMem(4 bytes @ 0xE000ED18) -- CPU_ReadMem(4 bytes @ 0xE000ED18) -- CPU_WriteMem(4 bytes @ 0xE000ED18) -- CPU_ReadMem(64 bytes @ 0x08001580) -- Updating C cache (64 bytes @ 0x08001580) -- Read from C cache (4 bytes @ 0x080015B0) -- Simulated  returns 0x00 (0005ms, 0402ms total)
T1E24 019:560 JLINK_ReadReg(R15 (PC))  returns 0x08001562 (0000ms, 0402ms total)
T1E24 019:560 JLINK_ReadReg(XPSR)  returns 0x61000000 (0000ms, 0402ms total)
T1E24 019:560 JLINK_SetBPEx(Addr = 0x08001560, Type = 0xFFFFFFF2)  returns 0x00000005 (0000ms, 0402ms total)
T1E24 019:560 JLINK_Go() -- CPU_WriteMem(4 bytes @ 0xE0002000) -- CPU_ReadMem(4 bytes @ 0xE0001000) -- CPU_WriteMem(4 bytes @ 0xE0001004) (0002ms, 0404ms total)
T1E24 019:663 JLINK_IsHalted()  returns FALSE (0001ms, 0405ms total)
T1E24 019:764 JLINK_IsHalted()  returns FALSE (0000ms, 0404ms total)
T1E24 019:865 JLINK_IsHalted()  returns FALSE (0000ms, 0404ms total)
T1E24 019:965 JLINK_IsHalted()  returns FALSE (0001ms, 0405ms total)
T1E24 020:066 JLINK_IsHalted()  returns FALSE (0000ms, 0404ms total)
T1E24 020:166 JLINK_ReadMemU32(0xE0001004, 0x0001 Items, ...) -- CPU is running -- CPU_ReadMem(4 bytes @ 0xE0001004) - Data: 0F 05 84 01  returns 0x01 (0001ms, 0405ms total)
T2EE8 020:167 JLINK_ReadMem (0x2000000E, 0x0006 Bytes, ...) -- CPU is running -- CPU_ReadMem(6 bytes @ 0x2000000E) - Data: A5 FA 19 F0 03 00  returns 0x00 (0000ms, 0405ms total)
T2EE8 020:167 JLINK_ReadMem (0x2000000E, 0x0001 Bytes, ...) -- CPU is running -- CPU_ReadMem(1 bytes @ 0x2000000E) - Data: A5  returns 0x00 (0001ms, 0406ms total)
T2EE8 020:168 JLINK_ReadMem (0x2000000F, 0x0001 Bytes, ...) -- CPU is running -- CPU_ReadMem(1 bytes @ 0x2000000F) - Data: FA  returns 0x00 (0000ms, 0406ms total)
T2EE8 020:168 JLINK_ReadMem (0x20000010, 0x0001 Bytes, ...) -- CPU is running -- CPU_ReadMem(1 bytes @ 0x20000010) - Data: 19  returns 0x00 (0001ms, 0407ms total)
T2EE8 020:169 JLINK_ReadMem (0x20000011, 0x0001 Bytes, ...) -- CPU is running -- CPU_ReadMem(1 bytes @ 0x20000011) - Data: F0  returns 0x00 (0000ms, 0407ms total)
T2EE8 020:169 JLINK_ReadMem (0x20000012, 0x0001 Bytes, ...) -- CPU is running -- CPU_ReadMem(1 bytes @ 0x20000012) - Data: 03  returns 0x00 (0001ms, 0408ms total)
T2EE8 020:170 JLINK_ReadMem (0x20000013, 0x0001 Bytes, ...) -- CPU is running -- CPU_ReadMem(1 bytes @ 0x20000013) - Data: 00  returns 0x00 (0000ms, 0408ms total)
T1E24 020:170 JLINK_IsHalted()  returns FALSE (0001ms, 0409ms total)
T1E24 020:272 JLINK_IsHalted()  returns FALSE (0000ms, 0408ms total)
T1E24 020:372 JLINK_IsHalted()  returns FALSE (0001ms, 0409ms total)
T1E24 020:473 JLINK_IsHalted()  returns FALSE (0001ms, 0409ms total)
T1E24 020:574 JLINK_IsHalted()  returns FALSE (0001ms, 0409ms total)
T1E24 020:675 JLINK_ReadMemU32(0xE0001004, 0x0001 Items, ...) -- CPU is running - Data: 0F 05 84 01  returns 0x01 (0000ms, 0408ms total)
T2EE8 020:675 JLINK_ReadMem (0x2000000E, 0x0006 Bytes, ...) -- CPU is running -- CPU_ReadMem(6 bytes @ 0x2000000E) - Data: A5 FA 19 F0 03 00  returns 0x00 (0001ms, 0409ms total)
T2EE8 020:676 JLINK_ReadMem (0x2000000E, 0x0001 Bytes, ...) -- CPU is running -- CPU_ReadMem(1 bytes @ 0x2000000E) - Data: A5  returns 0x00 (0000ms, 0409ms total)
T2EE8 020:676 JLINK_ReadMem (0x2000000F, 0x0001 Bytes, ...) -- CPU is running -- CPU_ReadMem(1 bytes @ 0x2000000F) - Data: FA  returns 0x00 (0001ms, 0410ms total)
T2EE8 020:677 JLINK_ReadMem (0x20000010, 0x0001 Bytes, ...) -- CPU is running -- CPU_ReadMem(1 bytes @ 0x20000010) - Data: 19  returns 0x00 (0000ms, 0410ms total)
T2EE8 020:677 JLINK_ReadMem (0x20000011, 0x0001 Bytes, ...) -- CPU is running -- CPU_ReadMem(1 bytes @ 0x20000011) - Data: F0  returns 0x00 (0001ms, 0411ms total)
T2EE8 020:678 JLINK_ReadMem (0x20000012, 0x0001 Bytes, ...) -- CPU is running -- CPU_ReadMem(1 bytes @ 0x20000012) - Data: 03  returns 0x00 (0000ms, 0411ms total)
T2EE8 020:678 JLINK_ReadMem (0x20000013, 0x0001 Bytes, ...) -- CPU is running -- CPU_ReadMem(1 bytes @ 0x20000013) - Data: 00  returns 0x00 (0000ms, 0411ms total)
T1E24 020:678 JLINK_IsHalted()  returns FALSE (0001ms, 0412ms total)
T2EE8 020:729 JLINK_SetResetType(JLINKARM_CM3_RESET_TYPE_NORMAL)  returns JLINKARM_CM3_RESET_TYPE_NORMAL (0000ms, 0411ms total)
T2EE8 020:729 JLINK_ResetNoHalt() >0x108 TIF>Found SWD-DP with ID 0x2BA01477 >0x0D TIF> >0x28 TIF> >0x0D TIF> >0x28 TIF> >0x0D TIF> >0x28 TIF> >0x0D TIF> >0x28 TIF> >0x0D TIF> >0x21 TIF> >0x0D TIF> >0x28 TIF> >0x0D TIF> >0x28 TIF> >0x0D TIF> >0x28 TIF> >0x0D TIF> >0x21 TIF> >0x0D TIF> >0x21 TIF> >0x0D TIF> >0x28 TIF> >0x0D TIF> >0x21 TIF> >0x0D TIF> >0x21 TIF> >0x0D TIF> >0x28 TIF> >0x0D TIF> >0x21 TIF> >0x0D TIF> >0x21 TIF> >0x0D TIF> >0x28 TIF> >0x0D TIF> >0x21 TIF> >0x0D TIF> >0x21 TIF> >0x0D TIF>
 >0x28 TIF> >0x0D TIF> >0x21 TIF> >0x0D TIF> >0x21 TIF> >0x0D TIF> >0x28 TIF> >0x0D TIF> >0x21 TIF> >0x0D TIF> >0x21 TIF> >0x108 TIF>Found SWD-DP with ID 0x2BA01477 >0x0D TIF> >0x28 TIF> >0x0D TIF> >0x28 TIF> >0x0D TIF> >0x28 TIF> >0x0D TIF> >0x28 TIF> >0x0D TIF> >0x21 TIF> >0x0D TIF> >0x28 TIF> >0x0D TIF> >0x28 TIF> >0x0D TIF> >0x21 TIF> >0x0D TIF> >0x21 TIF> >0x0D TIF> >0x21 TIF>AP-IDR: 0x24770011, Type: AHB-AP >0x0D TIF> >0x28 TIF> >0x0D TIF> >0x28 TIF> >0x0D TIF> >0x28 TIF> >0x0D TIF> >0x21 TIF>
 >0x0D TIF> >0x21 TIF> >0x0D TIF> >0x28 TIF> >0x0D TIF> >0x21 TIF> >0x0D TIF> >0x21 TIF>Found Cortex-M4 r0p1, Little endian. -- CPU_ReadMem(4 bytes @ 0xE000EDF0) -- CPU_ReadMem(4 bytes @ 0xE0002000)FPUnit: 6 code (BP) slots and 2 literal slots -- CPU_ReadMem(4 bytes @ 0xE000EDFC) -- CPU_ReadMem(4 bytes @ 0xE0001000) -- CPU_WriteMem(4 bytes @ 0xE0001000) -- CPU_ReadMem(4 bytes @ 0xE000ED88) -- CPU_WriteMem(4 bytes @ 0xE000ED88) -- CPU_ReadMem(4 bytes @ 0xE000ED88) -- CPU_WriteMem(4 bytes @ 0xE000ED88)
CoreSight components:ROMTbl 0 @ E00FF000 -- CPU_ReadMem(16 bytes @ 0xE00FF000) -- CPU_ReadMem(16 bytes @ 0xE000EFF0) -- CPU_ReadMem(16 bytes @ 0xE000EFE0)ROMTbl 0 [0]: FFF0F000, CID: B105E00D, PID: 000BB00C SCS -- CPU_ReadMem(16 bytes @ 0xE0001FF0) -- CPU_ReadMem(16 bytes @ 0xE0001FE0)ROMTbl 0 [1]: FFF02000, CID: B105E00D, PID: 003BB002 DWT -- CPU_ReadMem(16 bytes @ 0xE0002FF0) -- CPU_ReadMem(16 bytes @ 0xE0002FE0)ROMTbl 0 [2]: FFF03000, CID: B105E00D, PID: 002BB003 FPB
 -- CPU_ReadMem(16 bytes @ 0xE0000FF0) -- CPU_ReadMem(16 bytes @ 0xE0000FE0)ROMTbl 0 [3]: FFF01000, CID: B105E00D, PID: 003BB001 ITM -- CPU_ReadMem(16 bytes @ 0xE00FF010) -- CPU_ReadMem(16 bytes @ 0xE0040FF0) -- CPU_ReadMem(16 bytes @ 0xE0040FE0)ROMTbl 0 [4]: FFF41000, CID: B105900D, PID: 000BB9A1 TPIU -- CPU_ReadMem(16 bytes @ 0xE0041FF0) -- CPU_ReadMem(16 bytes @ 0xE0041FE0)ROMTbl 0 [5]: FFF42000, CID: B105900D, PID: 000BB925 ETM
